T4FC0 1731:434.139   SEGGER J-Link V6.83d (beta) Log File
T4FC0 1731:434.188   DLL Compiled: Aug 28 2020 15:32:16
T4FC0 1731:434.194   Logging started @ 2023-05-19 02:39
T4FC0 1731:434.198 - 226.025ms
T4FC0 1731:434.207 JLINK_SetWarnOutHandler(...)
T4FC0 1731:434.211 - 0.006ms
T4FC0 1731:434.217 JLINK_OpenEx(...)
T4FC0 1731:436.114   Firmware: J-Link ARM V8 compiled Nov 28 2014 13:44:46
T4FC0 1731:438.835   Hardware: V8.00
T4FC0 1731:438.871   S/N: 788529194
T4FC0 1731:438.880   OEM: SEGGER
T4FC0 1731:438.889   Feature(s): RDI,FlashDL,FlashBP,JFlash,GDB
T4FC0 1731:440.134   TELNET listener socket opened on port 19021
T4FC0 1731:444.159   WEBSRV Starting webserver
T4FC0 1731:444.495   WEBSRV Webserver running on local port 19080
T4FC0 1731:444.513 - 10.299ms returns "O.K."
T4FC0 1731:444.538 JLINK_GetEmuCaps()
T4FC0 1731:444.546 - 0.010ms returns 0xB9FF7BBF
T4FC0 1731:444.556 JLINK_TIF_GetAvailable(...)
T4FC0 1731:444.772 - 0.227ms
T4FC0 1731:444.795 JLINK_SetErrorOutHandler(...)
T4FC0 1731:444.802 - 0.009ms
T4FC0 1731:445.153 JLINK_ExecCommand("ProjectFile = "E:\freeRtos\Uart-rtos\UART0\project\AS578_safe_UART0_new\KEIL\JLinkSettings.ini"", ...). 
T4FC0 1731:446.422 - 1.279ms returns 0x00
T4FC0 1731:446.474 JLINK_ExecCommand("Device = ARMCM3", ...). 
T4FC0 1731:446.502   Device "CORTEX-M3" selected.
T4FC0 1731:447.195 - 0.723ms returns 0x00
T4FC0 1731:447.230 JLINK_GetHardwareVersion()
T4FC0 1731:447.239 - 0.011ms returns 80000
T4FC0 1731:447.250 JLINK_GetDLLVersion()
T4FC0 1731:447.257 - 0.009ms returns 68304
T4FC0 1731:447.265 JLINK_GetOEMString(...)
T4FC0 1731:447.274 JLINK_GetFirmwareString(...)
T4FC0 1731:447.280 - 0.009ms
T4FC0 1731:447.319 JLINK_GetDLLVersion()
T4FC0 1731:447.325 - 0.009ms returns 68304
T4FC0 1731:447.334 JLINK_GetCompileDateTime()
T4FC0 1731:447.339 - 0.008ms
T4FC0 1731:447.352 JLINK_GetFirmwareString(...)
T4FC0 1731:447.359 - 0.009ms
T4FC0 1731:447.371 JLINK_GetHardwareVersion()
T4FC0 1731:447.377 - 0.008ms returns 80000
T4FC0 1731:447.389 JLINK_GetSN()
T4FC0 1731:447.395 - 0.009ms returns 788529194
T4FC0 1731:447.406 JLINK_GetOEMString(...)
T4FC0 1731:447.424 JLINK_TIF_Select(JLINKARM_TIF_SWD)
T4FC0 1731:448.146 - 0.736ms returns 0x00
T4FC0 1731:448.172 JLINK_HasError()
T4FC0 1731:448.181 JLINK_SetSpeed(5000)
T4FC0 1731:448.259 - 0.087ms
T4FC0 1731:448.277 JLINK_GetId()
T4FC0 1731:449.138   Found SW-DP with ID 0x2BA01477
T4FC0 1731:452.990   Old FW that does not support reading DPIDR via DAP jobs
T4FC0 1731:457.016   Unknown DP version. Assuming DPv0
T4FC0 1731:457.041   Scanning AP map to find all available APs
T4FC0 1731:459.816   AP[1]: Stopped AP scan as end of AP map has been reached
T4FC0 1731:459.846   AP[0]: AHB-AP (IDR: 0x24770011)
T4FC0 1731:459.856   Iterating through AP map to find AHB-AP to use
T4FC0 1731:464.266   AP[0]: Core found
T4FC0 1731:464.293   AP[0]: AHB-AP ROM base: 0xE00FF000
T4FC0 1731:466.358   CPUID register: 0x412FC230. Implementer code: 0x41 (ARM)
T4FC0 1731:466.377   Found Cortex-M3 r2p0, Little endian.
T4FC0 1731:567.735   -- Max. mem block: 0x00002408
T4FC0 1731:567.753   CPU_ReadMem(4 bytes @ 0xE000EDF0)
T4FC0 1731:568.400   CPU_WriteMem(4 bytes @ 0xE000EDF0)
T4FC0 1731:568.948   CPU_ReadMem(4 bytes @ 0xE0002000)
T4FC0 1731:569.415   FPUnit: 6 code (BP) slots and 2 literal slots
T4FC0 1731:569.443   CPU_ReadMem(4 bytes @ 0xE000EDFC)
T4FC0 1731:569.877   CPU_WriteMem(4 bytes @ 0xE000EDFC)
T4FC0 1731:570.276   CPU_ReadMem(4 bytes @ 0xE0001000)
T4FC0 1731:570.711   CPU_WriteMem(4 bytes @ 0xE0001000)
T4FC0 1731:571.149   CPU_ReadMem(4 bytes @ 0xE000ED88)
T4FC0 1731:571.608   CPU_WriteMem(4 bytes @ 0xE000ED88)
T4FC0 1731:572.039   CPU_ReadMem(4 bytes @ 0xE000ED88)
T4FC0 1731:572.453   CPU_WriteMem(4 bytes @ 0xE000ED88)
T4FC0 1731:572.898   CoreSight components:
T4FC0 1731:572.911   ROMTbl[0] @ E00FF000
T4FC0 1731:572.919   CPU_ReadMem(64 bytes @ 0xE00FF000)
T4FC0 1731:573.727   CPU_ReadMem(32 bytes @ 0xE000EFE0)
T4FC0 1731:574.329   ROMTbl[0][0]: E000E000, CID: B105E00D, PID: 002BB000 SCS
T4FC0 1731:574.341   CPU_ReadMem(32 bytes @ 0xE0001FE0)
T4FC0 1731:574.980   ROMTbl[0][1]: E0001000, CID: B105E00D, PID: 002BB002 DWT
T4FC0 1731:574.995   CPU_ReadMem(32 bytes @ 0xE0002FE0)
T4FC0 1731:575.632   ROMTbl[0][2]: E0002000, CID: B105E00D, PID: 002BB003 FPB
T4FC0 1731:576.148 - 127.877ms returns 0x2BA01477
T4FC0 1731:576.163 JLINK_GetDLLVersion()
T4FC0 1731:576.168 - 0.006ms returns 68304
T4FC0 1731:576.178 JLINK_CORE_GetFound()
T4FC0 1731:576.183 - 0.006ms returns 0x30000FF
T4FC0 1731:576.298 JLINK_GetDebugInfo(0x100 = JLINKARM_ROM_TABLE_ADDR_INDEX)
T4FC0 1731:576.308   Value=0xE00FF000
T4FC0 1731:576.314 - 0.018ms returns 0
T4FC0 1731:576.327 JLINK_GetDebugInfo(0x100 = JLINKARM_ROM_TABLE_ADDR_INDEX)
T4FC0 1731:576.331   Value=0xE00FF000
T4FC0 1731:576.337 - 0.012ms returns 0
T4FC0 1731:576.342 JLINK_GetDebugInfo(0x101 = JLINKARM_DEBUG_INFO_ETM_ADDR_INDEX)
T4FC0 1731:576.346   Value=0x00000000
T4FC0 1731:576.352 - 0.012ms returns 0
T4FC0 1731:576.359 JLINK_ReadMemEx(0xE0041FF0, 0x10 Bytes, Flags = 0x02000004)
T4FC0 1731:576.368   CPU_ReadMem(16 bytes @ 0xE0041FF0)
T4FC0 1731:576.868   Data:  00 00 00 00 00 00 00 00 00 00 00 00 00 00 00 00
T4FC0 1731:576.878 - 0.521ms returns 16 (0x10)
T4FC0 1731:576.884 JLINK_GetDebugInfo(0x102 = JLINKARM_DEBUG_INFO_MTB_ADDR_INDEX)
T4FC0 1731:576.889   Value=0x00000000
T4FC0 1731:576.909 - 0.026ms returns 0
T4FC0 1731:576.913 JLINK_GetDebugInfo(0x103 = JLINKARM_DEBUG_INFO_TPIU_ADDR_INDEX)
T4FC0 1731:576.918   Value=0x00000000
T4FC0 1731:576.923 - 0.011ms returns 0
T4FC0 1731:576.928 JLINK_ReadMemEx(0xE0040FF0, 0x10 Bytes, Flags = 0x02000004)
T4FC0 1731:576.935   CPU_ReadMem(16 bytes @ 0xE0040FF0)
T4FC0 1731:577.413   Data:  00 00 00 00 00 00 00 00 00 00 00 00 00 00 00 00
T4FC0 1731:577.424 - 0.513ms returns 16 (0x10)
T4FC0 1731:577.447 JLINK_GetDebugInfo(0x104 = JLINKARM_DEBUG_INFO_ITM_ADDR_INDEX)
T4FC0 1731:577.452   Value=0xE0000000
T4FC0 1731:577.458 - 0.013ms returns 0
T4FC0 1731:577.463 JLINK_GetDebugInfo(0x105 = JLINKARM_DEBUG_INFO_DWT_ADDR_INDEX)
T4FC0 1731:577.467   Value=0xE0001000
T4FC0 1731:577.487 - 0.025ms returns 0
T4FC0 1731:577.492 JLINK_GetDebugInfo(0x106 = JLINKARM_DEBUG_INFO_FPB_ADDR_INDEX)
T4FC0 1731:577.496   Value=0xE0002000
T4FC0 1731:577.501 - 0.011ms returns 0
T4FC0 1731:577.506 JLINK_GetDebugInfo(0x107 = JLINKARM_DEBUG_INFO_NVIC_ADDR_INDEX)
T4FC0 1731:577.510   Value=0xE000E000
T4FC0 1731:577.532 - 0.028ms returns 0
T4FC0 1731:577.537 JLINK_GetDebugInfo(0x10C = JLINKARM_DEBUG_INFO_DBG_ADDR_INDEX)
T4FC0 1731:577.542   Value=0xE000EDF0
T4FC0 1731:577.548 - 0.012ms returns 0
T4FC0 1731:577.566 JLINK_GetDebugInfo(0x01 = Unknown)
T4FC0 1731:577.570   Value=0x00000000
T4FC0 1731:577.576 - 0.012ms returns 0
T4FC0 1731:577.585 JLINK_ReadMemU32(0xE000ED00, 0x1 Items)
T4FC0 1731:577.594   CPU_ReadMem(4 bytes @ 0xE000ED00)
T4FC0 1731:578.012   Data:  30 C2 2F 41
T4FC0 1731:578.027   Debug reg: CPUID
T4FC0 1731:578.032 - 0.449ms returns 1 (0x1)
T4FC0 1731:578.040 JLINK_GetDebugInfo(0x10F = JLINKARM_DEBUG_INFO_HAS_CORTEX_M_SECURITY_EXT_INDEX)
T4FC0 1731:578.045   Value=0x00000000
T4FC0 1731:578.051 - 0.013ms returns 0
T4FC0 1731:578.057 JLINK_HasError()
T4FC0 1731:578.066 JLINK_SetResetType(JLINKARM_CM3_RESET_TYPE_NORMAL)
T4FC0 1731:578.071 - 0.006ms returns JLINKARM_CM3_RESET_TYPE_NORMAL
T4FC0 1731:578.077 JLINK_Reset()
T4FC0 1731:578.087   CPU is running
T4FC0 1731:578.095   CPU_WriteMem(4 bytes @ 0xE000EDF0)
T4FC0 1731:578.578   CPU is running
T4FC0 1731:578.591   CPU_WriteMem(4 bytes @ 0xE000EDFC)
T4FC0 1731:578.978   Reset: Halt core after reset via DEMCR.VC_CORERESET.
T4FC0 1731:579.413   Reset: Reset device via AIRCR.SYSRESETREQ.
T4FC0 1731:579.421   CPU is running
T4FC0 1731:579.428   CPU_WriteMem(4 bytes @ 0xE000ED0C)
T4FC0 1731:632.810   CPU_ReadMem(4 bytes @ 0xE000EDF0)
T4FC0 1731:633.261   CPU_ReadMem(4 bytes @ 0xE000EDF0)
T4FC0 1731:633.708   CPU is running
T4FC0 1731:633.720   CPU_WriteMem(4 bytes @ 0xE000EDF0)
T4FC0 1731:634.166   CPU is running
T4FC0 1731:634.177   CPU_WriteMem(4 bytes @ 0xE000EDFC)
T4FC0 1731:640.048   CPU_ReadMem(4 bytes @ 0xE000EDF0)
T4FC0 1731:642.722   CPU_WriteMem(4 bytes @ 0xE0002000)
T4FC0 1731:643.074   CPU_ReadMem(4 bytes @ 0xE000EDFC)
T4FC0 1731:643.437   CPU_ReadMem(4 bytes @ 0xE0001000)
T4FC0 1731:643.765 - 65.691ms
T4FC0 1731:643.856 JLINK_HasError()
T4FC0 1731:643.871 JLINK_ReadReg(R15 (PC))
T4FC0 1731:643.877 - 0.008ms returns 0x00000114
T4FC0 1731:643.883 JLINK_ReadReg(XPSR)
T4FC0 1731:643.887 - 0.006ms returns 0x01000000
T4FC0 1731:643.893 JLINK_Halt()
T4FC0 1731:643.897 - 0.006ms returns 0x00
T4FC0 1731:643.903 JLINK_ReadMemU32(0xE000EDF0, 0x1 Items)
T4FC0 1731:643.910   CPU_ReadMem(4 bytes @ 0xE000EDF0)
T4FC0 1731:644.266   Data:  03 00 03 00
T4FC0 1731:644.274   Debug reg: DHCSR
T4FC0 1731:644.279 - 0.378ms returns 1 (0x1)
T4FC0 1731:644.287 JLINK_WriteU32_64(0xE000EDF0, 0xA05F0003)
T4FC0 1731:644.291   Debug reg: DHCSR
T4FC0 1731:644.302   CPU_WriteMem(4 bytes @ 0xE000EDF0)
T4FC0 1731:644.664 - 0.380ms returns 0 (0x00000000)
T4FC0 1731:644.671 JLINK_WriteU32_64(0xE000EDFC, 0x01000000)
T4FC0 1731:644.676   Debug reg: DEMCR
T4FC0 1731:644.683   CPU_WriteMem(4 bytes @ 0xE000EDFC)
T4FC0 1731:645.032 - 0.363ms returns 0 (0x00000000)
T4FC0 1731:645.061 JLINK_GetHWStatus(...)
T4FC0 1731:645.206 - 0.148ms returns 0
T4FC0 1731:645.224 JLINK_GetNumBPUnits(Type = 0xFFFFFF00)
T4FC0 1731:645.229 - 0.007ms returns 0x06
T4FC0 1731:645.234 JLINK_GetNumBPUnits(Type = 0xF0)
T4FC0 1731:645.238 - 0.006ms returns 0x2000
T4FC0 1731:645.244 JLINK_GetNumWPUnits()
T4FC0 1731:645.248 - 0.006ms returns 4
T4FC0 1731:645.260 JLINK_GetSpeed()
T4FC0 1731:645.265 - 0.006ms returns 4000
T4FC0 1731:645.274 JLINK_ReadMemU32(0xE000E004, 0x1 Items)
T4FC0 1731:645.280   CPU_ReadMem(4 bytes @ 0xE000E004)
T4FC0 1731:645.624   Data:  00 00 00 00
T4FC0 1731:645.631 - 0.359ms returns 1 (0x1)
T4FC0 1731:645.637 JLINK_ReadMemU32(0xE000E004, 0x1 Items)
T4FC0 1731:645.642   CPU_ReadMem(4 bytes @ 0xE000E004)
T4FC0 1731:645.994   Data:  00 00 00 00
T4FC0 1731:646.001 - 0.366ms returns 1 (0x1)
T4FC0 1731:646.008 JLINK_WriteMemEx(0xE0001000, 0x0000001C Bytes, Flags = 0x02000004)
T4FC0 1731:646.013   Data:  01 00 00 00 00 00 00 00 00 00 00 00 00 00 00 00 ...
T4FC0 1731:646.297   CPU_WriteMem(28 bytes @ 0xE0001000)
T4FC0 1731:646.826 - 0.821ms returns 0x1C
T4FC0 1731:646.842 JLINK_HasError()
T4FC0 1731:646.847 JLINK_ReadReg(R15 (PC))
T4FC0 1731:646.852 - 0.006ms returns 0x00000114
T4FC0 1731:646.857 JLINK_ReadReg(XPSR)
T4FC0 1731:646.862 - 0.006ms returns 0x01000000
T4FC0 1731:649.067 JLINK_ReadMemEx(0xE0001004, 0x4 Bytes, Flags = 0x02000000)
T4FC0 1731:649.080   Data:  00 00 00 00
T4FC0 1731:649.086   Debug reg: DWT_CYCCNT
T4FC0 1731:649.092 - 0.026ms returns 4 (0x4)
T4FC0 1731:740.747 JLINK_HasError()
T4FC0 1731:740.767 JLINK_SetResetType(JLINKARM_CM3_RESET_TYPE_NORMAL)
T4FC0 1731:740.772 - 0.007ms returns JLINKARM_CM3_RESET_TYPE_NORMAL
T4FC0 1731:740.777 JLINK_Reset()
T4FC0 1731:740.790   CPU_WriteMem(4 bytes @ 0xE000EDF0)
T4FC0 1731:741.232   CPU_WriteMem(4 bytes @ 0xE000EDFC)
T4FC0 1731:741.657   Reset: Halt core after reset via DEMCR.VC_CORERESET.
T4FC0 1731:742.124   Reset: Reset device via AIRCR.SYSRESETREQ.
T4FC0 1731:742.133   CPU_WriteMem(4 bytes @ 0xE000ED0C)
T4FC0 1731:794.716   CPU_ReadMem(4 bytes @ 0xE000EDF0)
T4FC0 1731:795.433   CPU_ReadMem(4 bytes @ 0xE000EDF0)
T4FC0 1731:795.965   CPU_WriteMem(4 bytes @ 0xE000EDF0)
T4FC0 1731:796.459   CPU_WriteMem(4 bytes @ 0xE000EDFC)
T4FC0 1731:802.138   CPU_ReadMem(4 bytes @ 0xE000EDF0)
T4FC0 1731:805.464   CPU_WriteMem(4 bytes @ 0xE0002000)
T4FC0 1731:805.878   CPU_ReadMem(4 bytes @ 0xE000EDFC)
T4FC0 1731:806.246   CPU_ReadMem(4 bytes @ 0xE0001000)
T4FC0 1731:806.655 - 65.884ms
T4FC0 1731:806.809 JLINK_HasError()
T4FC0 1731:806.816 JLINK_ReadReg(R15 (PC))
T4FC0 1731:806.822 - 0.008ms returns 0x00000114
T4FC0 1731:806.828 JLINK_ReadReg(XPSR)
T4FC0 1731:806.832 - 0.006ms returns 0x01000000
T4FC0 1731:806.903 JLINK_ReadMemEx(0x00000114, 0x3C Bytes, Flags = 0x02000000)
T4FC0 1731:806.912   CPU_ReadMem(60 bytes @ 0x00000114)
T4FC0 1731:807.772   Data:  00 00 00 00 00 00 00 00 00 00 00 00 00 00 00 00 ...
T4FC0 1731:807.783 - 0.882ms returns 60 (0x3C)
T4FC0 1731:807.789 JLINK_ReadMemEx(0x00000114, 0x2 Bytes, Flags = 0x02000000)
T4FC0 1731:807.797   CPU_ReadMem(2 bytes @ 0x00000114)
T4FC0 1731:808.170   Data:  00 00
T4FC0 1731:808.181 - 0.393ms returns 2 (0x2)
T4FC0 1731:808.188 JLINK_ReadMemEx(0x00000116, 0x2 Bytes, Flags = 0x02000000)
T4FC0 1731:808.195   CPU_ReadMem(2 bytes @ 0x00000116)
T4FC0 1731:808.638   Data:  00 00
T4FC0 1731:808.649 - 0.463ms returns 2 (0x2)
T4FC0 1731:808.670 JLINK_ReadMemEx(0x00000116, 0x2 Bytes, Flags = 0x02000000)
T4FC0 1731:808.678   CPU_ReadMem(2 bytes @ 0x00000116)
T4FC0 1731:809.050   Data:  00 00
T4FC0 1731:809.061 - 0.392ms returns 2 (0x2)
T4FC0 1731:809.068 JLINK_ReadMemEx(0x00000118, 0x3C Bytes, Flags = 0x02000000)
T4FC0 1731:809.075   CPU_ReadMem(60 bytes @ 0x00000118)
T4FC0 1731:809.891   Data:  00 00 00 00 00 00 00 00 00 00 00 00 00 00 00 00 ...
T4FC0 1731:809.901 - 0.836ms returns 60 (0x3C)
T4FC0 1731:809.908 JLINK_ReadMemEx(0x00000118, 0x2 Bytes, Flags = 0x02000000)
T4FC0 1731:809.915   CPU_ReadMem(2 bytes @ 0x00000118)
T4FC0 1731:810.329   Data:  00 00
T4FC0 1731:810.340 - 0.434ms returns 2 (0x2)
T4FC0 1731:810.356 JLINK_ReadMemEx(0x00000118, 0x3C Bytes, Flags = 0x02000000)
T4FC0 1731:810.364   CPU_ReadMem(60 bytes @ 0x00000118)
T4FC0 1731:811.220   Data:  00 00 00 00 00 00 00 00 00 00 00 00 00 00 00 00 ...
T4FC0 1731:811.230 - 0.876ms returns 60 (0x3C)
T4FC0 1731:811.237 JLINK_ReadMemEx(0x00000118, 0x2 Bytes, Flags = 0x02000000)
T4FC0 1731:811.244   CPU_ReadMem(2 bytes @ 0x00000118)
T4FC0 1731:811.598   Data:  00 00
T4FC0 1731:811.609 - 0.374ms returns 2 (0x2)
T4FC0 1731:811.616 JLINK_ReadMemEx(0x0000011A, 0x2 Bytes, Flags = 0x02000000)
T4FC0 1731:811.623   CPU_ReadMem(2 bytes @ 0x0000011A)
T4FC0 1731:811.993   Data:  00 00
T4FC0 1731:812.001 - 0.386ms returns 2 (0x2)
T4FC0 1731:812.015 JLINK_ReadMemEx(0x0000011A, 0x2 Bytes, Flags = 0x02000000)
T4FC0 1731:812.022   CPU_ReadMem(2 bytes @ 0x0000011A)
T4FC0 1731:812.429   Data:  00 00
T4FC0 1731:812.439 - 0.426ms returns 2 (0x2)
T4FC0 1731:812.445 JLINK_ReadMemEx(0x0000011C, 0x3C Bytes, Flags = 0x02000000)
T4FC0 1731:812.451   CPU_ReadMem(60 bytes @ 0x0000011C)
T4FC0 1731:813.290   Data:  00 00 00 00 00 00 00 00 00 00 00 00 00 00 00 00 ...
T4FC0 1731:813.314 - 0.873ms returns 60 (0x3C)
T4FC0 1731:813.325 JLINK_ReadMemEx(0x0000011C, 0x2 Bytes, Flags = 0x02000000)
T4FC0 1731:813.334   CPU_ReadMem(2 bytes @ 0x0000011C)
T4FC0 1731:813.695   Data:  00 00
T4FC0 1731:813.704 - 0.381ms returns 2 (0x2)
T4FC0 1731:813.721 JLINK_ReadMemEx(0x0000011C, 0x3C Bytes, Flags = 0x02000000)
T4FC0 1731:813.727   CPU_ReadMem(60 bytes @ 0x0000011C)
T4FC0 1731:814.513   Data:  00 00 00 00 00 00 00 00 00 00 00 00 00 00 00 00 ...
T4FC0 1731:814.560 - 0.841ms returns 60 (0x3C)
T4FC0 1731:814.565 JLINK_ReadMemEx(0x0000011C, 0x2 Bytes, Flags = 0x02000000)
T4FC0 1731:814.571   CPU_ReadMem(2 bytes @ 0x0000011C)
T4FC0 1731:814.888   Data:  00 00
T4FC0 1731:814.896 - 0.332ms returns 2 (0x2)
T4FC0 1731:814.901 JLINK_ReadMemEx(0x0000011E, 0x2 Bytes, Flags = 0x02000000)
T4FC0 1731:814.907   CPU_ReadMem(2 bytes @ 0x0000011E)
T4FC0 1731:815.248   Data:  00 00
T4FC0 1731:815.256 - 0.356ms returns 2 (0x2)
T4FC0 1731:815.269 JLINK_ReadMemEx(0x0000011E, 0x2 Bytes, Flags = 0x02000000)
T4FC0 1731:815.275   CPU_ReadMem(2 bytes @ 0x0000011E)
T4FC0 1731:815.700   Data:  00 00
T4FC0 1731:815.707 - 0.441ms returns 2 (0x2)
T4FC0 1731:815.713 JLINK_ReadMemEx(0x00000120, 0x3C Bytes, Flags = 0x02000000)
T4FC0 1731:815.719   CPU_ReadMem(60 bytes @ 0x00000120)
T4FC0 1731:816.477   Data:  00 00 00 00 00 00 00 00 00 00 00 00 00 00 00 00 ...
T4FC0 1731:816.484 - 0.772ms returns 60 (0x3C)
T4FC0 1731:816.490 JLINK_ReadMemEx(0x00000120, 0x2 Bytes, Flags = 0x02000000)
T4FC0 1731:816.495   CPU_ReadMem(2 bytes @ 0x00000120)
T4FC0 1731:816.828   Data:  00 00
T4FC0 1731:816.835 - 0.347ms returns 2 (0x2)
T4FC0 1731:816.896 JLINK_ReadMemEx(0x00000120, 0x3C Bytes, Flags = 0x02000000)
T4FC0 1731:816.905   CPU_ReadMem(60 bytes @ 0x00000120)
T4FC0 1731:817.719   Data:  00 00 00 00 00 00 00 00 00 00 00 00 00 00 00 00 ...
T4FC0 1731:817.759 - 0.865ms returns 60 (0x3C)
T4FC0 1731:817.765 JLINK_ReadMemEx(0x00000120, 0x2 Bytes, Flags = 0x02000000)
T4FC0 1731:817.770   CPU_ReadMem(2 bytes @ 0x00000120)
T4FC0 1731:818.172   Data:  00 00
T4FC0 1731:818.179 - 0.416ms returns 2 (0x2)
T4FC0 1731:818.185 JLINK_ReadMemEx(0x00000122, 0x2 Bytes, Flags = 0x02000000)
T4FC0 1731:818.190   CPU_ReadMem(2 bytes @ 0x00000122)
T4FC0 1731:818.575   Data:  00 00
T4FC0 1731:818.582 - 0.399ms returns 2 (0x2)
T4FC0 1733:654.362 JLINK_HasError()
T4FC0 1733:654.382 JLINK_ReadReg(R0)
T4FC0 1733:654.707 - 0.329ms returns 0x00000000
T4FC0 1733:654.716 JLINK_ReadReg(R1)
T4FC0 1733:654.720 - 0.006ms returns 0x00000000
T4FC0 1733:654.726 JLINK_ReadReg(R2)
T4FC0 1733:654.730 - 0.006ms returns 0x00000000
T4FC0 1733:654.735 JLINK_ReadReg(R3)
T4FC0 1733:654.739 - 0.006ms returns 0x00000000
T4FC0 1733:654.744 JLINK_ReadReg(R4)
T4FC0 1733:654.748 - 0.006ms returns 0x00000000
T4FC0 1733:654.753 JLINK_ReadReg(R5)
T4FC0 1733:654.757 - 0.006ms returns 0x00000000
T4FC0 1733:654.762 JLINK_ReadReg(R6)
T4FC0 1733:654.766 - 0.006ms returns 0x00000000
T4FC0 1733:654.771 JLINK_ReadReg(R7)
T4FC0 1733:654.776 - 0.006ms returns 0x00000000
T4FC0 1733:654.781 JLINK_ReadReg(R8)
T4FC0 1733:654.785 - 0.006ms returns 0x00000000
T4FC0 1733:654.790 JLINK_ReadReg(R9)
T4FC0 1733:654.794 - 0.006ms returns 0x00000000
T4FC0 1733:654.799 JLINK_ReadReg(R10)
T4FC0 1733:654.803 - 0.006ms returns 0x00000000
T4FC0 1733:654.809 JLINK_ReadReg(R11)
T4FC0 1733:654.813 - 0.006ms returns 0x00000000
T4FC0 1733:654.818 JLINK_ReadReg(R12)
T4FC0 1733:654.822 - 0.006ms returns 0x00000000
T4FC0 1733:654.827 JLINK_ReadReg(R13 (SP))
T4FC0 1733:654.832 - 0.006ms returns 0x20020000
T4FC0 1733:654.837 JLINK_ReadReg(R14)
T4FC0 1733:654.841 - 0.006ms returns 0xFFFFFFFF
T4FC0 1733:654.846 JLINK_ReadReg(R15 (PC))
T4FC0 1733:654.850 - 0.006ms returns 0x00000114
T4FC0 1733:654.855 JLINK_ReadReg(XPSR)
T4FC0 1733:654.859 - 0.006ms returns 0x01000000
T4FC0 1733:654.864 JLINK_ReadReg(MSP)
T4FC0 1733:654.868 - 0.006ms returns 0x20020000
T4FC0 1733:654.873 JLINK_ReadReg(PSP)
T4FC0 1733:654.878 - 0.006ms returns 0x00000000
T4FC0 1733:654.882 JLINK_ReadReg(CFBP)
T4FC0 1733:654.887 - 0.006ms returns 0x00000000
T4FC0 1733:743.973 JLINK_ReadMemEx(0x10000000, 0x4 Bytes, Flags = 0x02000000)
T4FC0 1733:743.998   CPU_ReadMem(4 bytes @ 0x10000000)
T4FC0 1733:744.398   Data:  00 80 01 20
T4FC0 1733:744.406 - 0.435ms returns 4 (0x4)
T4FC0 1733:744.457 JLINK_HasError()
T4FC0 1733:744.467 JLINK_WriteReg(R13 (SP), 0x20018000)
T4FC0 1733:744.474 - 0.009ms returns 0
T4FC0 1733:744.480 JLINK_HasError()
T4FC0 1733:744.485 JLINK_ReadReg(R0)
T4FC0 1733:744.489 - 0.006ms returns 0x00000000
T4FC0 1733:744.494 JLINK_ReadReg(R1)
T4FC0 1733:744.498 - 0.006ms returns 0x00000000
T4FC0 1733:744.503 JLINK_ReadReg(R2)
T4FC0 1733:744.508 - 0.006ms returns 0x00000000
T4FC0 1733:744.512 JLINK_ReadReg(R3)
T4FC0 1733:744.517 - 0.006ms returns 0x00000000
T4FC0 1733:744.522 JLINK_ReadReg(R4)
T4FC0 1733:744.526 - 0.006ms returns 0x00000000
T4FC0 1733:744.531 JLINK_ReadReg(R5)
T4FC0 1733:744.535 - 0.006ms returns 0x00000000
T4FC0 1733:744.539 JLINK_ReadReg(R6)
T4FC0 1733:744.544 - 0.006ms returns 0x00000000
T4FC0 1733:744.548 JLINK_ReadReg(R7)
T4FC0 1733:744.552 - 0.006ms returns 0x00000000
T4FC0 1733:744.557 JLINK_ReadReg(R8)
T4FC0 1733:744.561 - 0.006ms returns 0x00000000
T4FC0 1733:744.566 JLINK_ReadReg(R9)
T4FC0 1733:744.570 - 0.006ms returns 0x00000000
T4FC0 1733:744.575 JLINK_ReadReg(R10)
T4FC0 1733:744.579 - 0.006ms returns 0x00000000
T4FC0 1733:744.584 JLINK_ReadReg(R11)
T4FC0 1733:744.588 - 0.006ms returns 0x00000000
T4FC0 1733:744.593 JLINK_ReadReg(R12)
T4FC0 1733:744.597 - 0.006ms returns 0x00000000
T4FC0 1733:744.602 JLINK_ReadReg(R13 (SP))
T4FC0 1733:744.606 - 0.006ms returns 0x20018000
T4FC0 1733:744.614 JLINK_ReadReg(R14)
T4FC0 1733:744.620 - 0.008ms returns 0xFFFFFFFF
T4FC0 1733:744.625 JLINK_ReadReg(R15 (PC))
T4FC0 1733:744.629 - 0.006ms returns 0x00000114
T4FC0 1733:744.634 JLINK_ReadReg(XPSR)
T4FC0 1733:744.638 - 0.006ms returns 0x01000000
T4FC0 1733:744.643 JLINK_ReadReg(MSP)
T4FC0 1733:744.647 - 0.006ms returns 0x20018000
T4FC0 1733:744.652 JLINK_ReadReg(PSP)
T4FC0 1733:744.656 - 0.006ms returns 0x00000000
T4FC0 1733:744.661 JLINK_ReadReg(CFBP)
T4FC0 1733:744.665 - 0.006ms returns 0x00000000
T4FC0 1733:744.671 JLINK_ReadMemEx(0x10000004, 0x4 Bytes, Flags = 0x02000000)
T4FC0 1733:744.677   CPU_ReadMem(4 bytes @ 0x10000004)
T4FC0 1733:745.016   Data:  0D 02 00 10
T4FC0 1733:745.023 - 0.354ms returns 4 (0x4)
T4FC0 1733:745.029 JLINK_HasError()
T4FC0 1733:745.034 JLINK_WriteReg(R15 (PC), 0x1000020C)
T4FC0 1733:745.039 - 0.007ms returns 0
T4FC0 1733:745.392 JLINK_HasError()
T4FC0 1733:745.415 JLINK_ReadReg(R0)
T4FC0 1733:745.420 - 0.007ms returns 0x00000000
T4FC0 1733:745.425 JLINK_ReadReg(R1)
T4FC0 1733:745.429 - 0.006ms returns 0x00000000
T4FC0 1733:745.434 JLINK_ReadReg(R2)
T4FC0 1733:745.438 - 0.006ms returns 0x00000000
T4FC0 1733:745.443 JLINK_ReadReg(R3)
T4FC0 1733:745.447 - 0.006ms returns 0x00000000
T4FC0 1733:745.452 JLINK_ReadReg(R4)
T4FC0 1733:745.456 - 0.006ms returns 0x00000000
T4FC0 1733:745.461 JLINK_ReadReg(R5)
T4FC0 1733:745.465 - 0.006ms returns 0x00000000
T4FC0 1733:745.470 JLINK_ReadReg(R6)
T4FC0 1733:745.474 - 0.006ms returns 0x00000000
T4FC0 1733:745.478 JLINK_ReadReg(R7)
T4FC0 1733:745.483 - 0.006ms returns 0x00000000
T4FC0 1733:745.487 JLINK_ReadReg(R8)
T4FC0 1733:745.491 - 0.006ms returns 0x00000000
T4FC0 1733:745.496 JLINK_ReadReg(R9)
T4FC0 1733:745.500 - 0.006ms returns 0x00000000
T4FC0 1733:745.505 JLINK_ReadReg(R10)
T4FC0 1733:745.509 - 0.006ms returns 0x00000000
T4FC0 1733:745.514 JLINK_ReadReg(R11)
T4FC0 1733:745.518 - 0.006ms returns 0x00000000
T4FC0 1733:745.523 JLINK_ReadReg(R12)
T4FC0 1733:745.527 - 0.006ms returns 0x00000000
T4FC0 1733:745.532 JLINK_ReadReg(R13 (SP))
T4FC0 1733:745.536 - 0.006ms returns 0x20018000
T4FC0 1733:745.541 JLINK_ReadReg(R14)
T4FC0 1733:745.545 - 0.006ms returns 0xFFFFFFFF
T4FC0 1733:745.550 JLINK_ReadReg(R15 (PC))
T4FC0 1733:745.554 - 0.006ms returns 0x1000020C
T4FC0 1733:745.559 JLINK_ReadReg(XPSR)
T4FC0 1733:745.563 - 0.006ms returns 0x01000000
T4FC0 1733:745.568 JLINK_ReadReg(MSP)
T4FC0 1733:745.572 - 0.006ms returns 0x20018000
T4FC0 1733:745.577 JLINK_ReadReg(PSP)
T4FC0 1733:745.581 - 0.006ms returns 0x00000000
T4FC0 1733:745.586 JLINK_ReadReg(CFBP)
T4FC0 1733:745.590 - 0.006ms returns 0x00000000
T4E38 1733:755.315 JLINK_ReadMemEx(0x1000020C, 0x2 Bytes, Flags = 0x02000000)
T4E38 1733:755.348   CPU_ReadMem(2 bytes @ 0x1000020C)
T4E38 1733:755.720   Data:  0D 48
T4E38 1733:755.729 - 0.416ms returns 2 (0x2)
T4E38 1733:755.736 JLINK_HasError()
T4E38 1733:755.747 JLINK_SetBPEx(Addr = 0x100001B0, Type = 0xFFFFFFF2)
T4E38 1733:755.753 - 0.008ms returns 0x00000001
T4E38 1733:755.759 JLINK_HasError()
T4E38 1733:755.764 JLINK_HasError()
T4E38 1733:755.770 JLINK_Go()
T4E38 1733:755.784   CPU_WriteMem(4 bytes @ 0xE0002000)
T4E38 1733:756.144   CPU_ReadMem(4 bytes @ 0xE0001000)
T4E38 1733:756.497   CPU_WriteMem(4 bytes @ 0xE0002008)
T4E38 1733:756.504   CPU_WriteMem(4 bytes @ 0xE000200C)
T4E38 1733:756.513   CPU_WriteMem(4 bytes @ 0xE0002010)
T4E38 1733:756.519   CPU_WriteMem(4 bytes @ 0xE0002014)
T4E38 1733:756.526   CPU_WriteMem(4 bytes @ 0xE0002018)
T4E38 1733:756.532   CPU_WriteMem(4 bytes @ 0xE000201C)
T4E38 1733:758.362   CPU_WriteMem(4 bytes @ 0xE0001004)
T4E38 1733:759.576 - 3.813ms
T4E38 1733:860.493 JLINK_HasError()
T4E38 1733:860.557 JLINK_IsHalted()
T4E38 1733:862.919 - 2.368ms returns TRUE
T4E38 1733:862.931 JLINK_HasError()
T4E38 1733:862.936 JLINK_Halt()
T4E38 1733:862.940 - 0.006ms returns 0x00
T4E38 1733:862.946 JLINK_IsHalted()
T4E38 1733:862.950 - 0.006ms returns TRUE
T4E38 1733:862.955 JLINK_IsHalted()
T4E38 1733:862.958 - 0.009ms returns TRUE
T4E38 1733:862.968 JLINK_IsHalted()
T4E38 1733:862.973 - 0.006ms returns TRUE
T4E38 1733:862.978 JLINK_HasError()
T4E38 1733:862.983 JLINK_ReadReg(R15 (PC))
T4E38 1733:862.989 - 0.008ms returns 0x100001B0
T4E38 1733:862.994 JLINK_ReadReg(XPSR)
T4E38 1733:862.998 - 0.006ms returns 0x41000000
T4E38 1733:863.005 JLINK_HasError()
T4E38 1733:863.013 JLINK_ClrBPEx(BPHandle = 0x00000001)
T4E38 1733:863.017 - 0.006ms returns 0x00
T4E38 1733:863.022 JLINK_HasError()
T4E38 1733:863.027 JLINK_HasError()
T4E38 1733:863.032 JLINK_ReadMemU32(0xE000ED30, 0x1 Items)
T4E38 1733:863.040   CPU_ReadMem(4 bytes @ 0xE000ED30)
T4E38 1733:863.475   Data:  03 00 00 00
T4E38 1733:863.486 - 0.456ms returns 1 (0x1)
T4E38 1733:863.493 JLINK_ReadMemU32(0xE0001028, 0x1 Items)
T4E38 1733:863.500   CPU_ReadMem(4 bytes @ 0xE0001028)
T4E38 1733:863.888   Data:  00 00 00 00
T4E38 1733:863.900   Debug reg: DWT_FUNC[0]
T4E38 1733:863.906 - 0.415ms returns 1 (0x1)
T4E38 1733:863.926 JLINK_ReadMemU32(0xE0001038, 0x1 Items)
T4E38 1733:863.958   CPU_ReadMem(4 bytes @ 0xE0001038)
T4E38 1733:864.450   Data:  00 02 00 00
T4E38 1733:864.469   Debug reg: DWT_FUNC[1]
T4E38 1733:864.475 - 0.550ms returns 1 (0x1)
T4E38 1733:864.482 JLINK_ReadMemU32(0xE0001048, 0x1 Items)
T4E38 1733:864.507   CPU_ReadMem(4 bytes @ 0xE0001048)
T4E38 1733:864.906   Data:  00 00 00 00
T4E38 1733:864.919   Debug reg: DWT_FUNC[2]
T4E38 1733:864.925 - 0.445ms returns 1 (0x1)
T4E38 1733:864.932 JLINK_ReadMemU32(0xE0001058, 0x1 Items)
T4E38 1733:864.939   CPU_ReadMem(4 bytes @ 0xE0001058)
T4E38 1733:865.343   Data:  00 00 00 00
T4E38 1733:865.354   Debug reg: DWT_FUNC[3]
T4E38 1733:865.360 - 0.430ms returns 1 (0x1)
T4E38 1733:865.499 JLINK_HasError()
T4E38 1733:865.506 JLINK_ReadReg(R0)
T4E38 1733:865.512 - 0.008ms returns 0x100001B1
T4E38 1733:865.517 JLINK_ReadReg(R1)
T4E38 1733:865.522 - 0.006ms returns 0x40000000
T4E38 1733:865.526 JLINK_ReadReg(R2)
T4E38 1733:865.530 - 0.006ms returns 0x00000000
T4E38 1733:865.557 JLINK_ReadReg(R3)
T4E38 1733:865.561 - 0.006ms returns 0x00000000
T4E38 1733:865.566 JLINK_ReadReg(R4)
T4E38 1733:865.570 - 0.006ms returns 0x00000000
T4E38 1733:865.575 JLINK_ReadReg(R5)
T4E38 1733:865.580 - 0.006ms returns 0x00000000
T4E38 1733:865.584 JLINK_ReadReg(R6)
T4E38 1733:865.589 - 0.006ms returns 0x00000000
T4E38 1733:865.594 JLINK_ReadReg(R7)
T4E38 1733:865.600 - 0.009ms returns 0x00000000
T4E38 1733:865.608 JLINK_ReadReg(R8)
T4E38 1733:865.627 - 0.022ms returns 0x00000000
T4E38 1733:865.633 JLINK_ReadReg(R9)
T4E38 1733:865.653 - 0.022ms returns 0x00000000
T4E38 1733:865.658 JLINK_ReadReg(R10)
T4E38 1733:865.662 - 0.006ms returns 0x00000000
T4E38 1733:865.667 JLINK_ReadReg(R11)
T4E38 1733:865.672 - 0.006ms returns 0x00000000
T4E38 1733:865.690 JLINK_ReadReg(R12)
T4E38 1733:865.694 - 0.006ms returns 0x00000000
T4E38 1733:865.699 JLINK_ReadReg(R13 (SP))
T4E38 1733:865.720 - 0.022ms returns 0x20018000
T4E38 1733:865.724 JLINK_ReadReg(R14)
T4E38 1733:865.729 - 0.006ms returns 0x10000225
T4E38 1733:865.733 JLINK_ReadReg(R15 (PC))
T4E38 1733:865.751 - 0.020ms returns 0x100001B0
T4E38 1733:865.756 JLINK_ReadReg(XPSR)
T4E38 1733:865.776 - 0.022ms returns 0x41000000
T4E38 1733:865.781 JLINK_ReadReg(MSP)
T4E38 1733:865.785 - 0.006ms returns 0x20018000
T4E38 1733:865.790 JLINK_ReadReg(PSP)
T4E38 1733:865.794 - 0.006ms returns 0x00000000
T4E38 1733:865.800 JLINK_ReadReg(CFBP)
T4E38 1733:865.804 - 0.006ms returns 0x00000000
T4E38 1733:934.371 JLINK_ReadMemEx(0x100001B0, 0x2 Bytes, Flags = 0x02000000)
T4E38 1733:934.403   CPU_ReadMem(64 bytes @ 0x10000180)
T4E38 1733:935.236    -- Updating DA cache (64 bytes @ 0x10000180)
T4E38 1733:935.247    -- Read from DA cache (2 bytes @ 0x100001B0)
T4E38 1733:935.254   Data:  10 B5
T4E38 1733:935.260 - 0.892ms returns 2 (0x2)
T4E38 1733:935.268 JLINK_HasError()
T4E38 1733:935.274 JLINK_SetBPEx(Addr = 0x1000433E, Type = 0xFFFFFFF2)
T4E38 1733:935.280 - 0.008ms returns 0x00000002
T4E38 1733:935.286 JLINK_HasError()
T4E38 1733:935.291 JLINK_SetBPEx(Addr = 0x100043B6, Type = 0xFFFFFFF2)
T4E38 1733:935.303 - 0.014ms returns 0x00000003
T4E38 1733:935.308 JLINK_HasError()
T4E38 1733:935.313 JLINK_HasError()
T4E38 1733:935.319 JLINK_Go()
T4E38 1733:935.327   CPU_WriteMem(4 bytes @ 0xE0002000)
T4E38 1733:935.698   CPU_WriteMem(4 bytes @ 0xE0002000)
T4E38 1733:936.105   CPU_ReadMem(4 bytes @ 0xE0001000)
T4E38 1733:936.460   CPU_WriteMem(4 bytes @ 0xE0002008)
T4E38 1733:936.469   CPU_WriteMem(4 bytes @ 0xE000200C)
T4E38 1733:937.573 - 2.257ms
T4E38 1734:037.852 JLINK_HasError()
T4E38 1734:037.877 JLINK_IsHalted()
T4E38 1734:040.114 - 2.243ms returns TRUE
T4E38 1734:040.125 JLINK_HasError()
T4E38 1734:040.130 JLINK_Halt()
T4E38 1734:040.134 - 0.006ms returns 0x00
T4E38 1734:040.140 JLINK_IsHalted()
T4E38 1734:040.144 - 0.006ms returns TRUE
T4E38 1734:040.149 JLINK_IsHalted()
T4E38 1734:040.153 - 0.006ms returns TRUE
T4E38 1734:040.157 JLINK_IsHalted()
T4E38 1734:040.161 - 0.006ms returns TRUE
T4E38 1734:040.167 JLINK_HasError()
T4E38 1734:040.172 JLINK_ReadReg(R15 (PC))
T4E38 1734:040.178 - 0.007ms returns 0x1000433E
T4E38 1734:040.183 JLINK_ReadReg(XPSR)
T4E38 1734:040.187 - 0.006ms returns 0x61000000
T4E38 1734:040.194 JLINK_HasError()
T4E38 1734:040.199 JLINK_ClrBPEx(BPHandle = 0x00000002)
T4E38 1734:040.204 - 0.006ms returns 0x00
T4E38 1734:040.209 JLINK_HasError()
T4E38 1734:040.213 JLINK_ClrBPEx(BPHandle = 0x00000003)
T4E38 1734:040.218 - 0.006ms returns 0x00
T4E38 1734:040.223 JLINK_HasError()
T4E38 1734:040.227 JLINK_HasError()
T4E38 1734:040.232 JLINK_ReadMemU32(0xE000ED30, 0x1 Items)
T4E38 1734:040.241   CPU_ReadMem(4 bytes @ 0xE000ED30)
T4E38 1734:040.568   Data:  03 00 00 00
T4E38 1734:040.580 - 0.350ms returns 1 (0x1)
T4E38 1734:040.587 JLINK_ReadMemU32(0xE0001028, 0x1 Items)
T4E38 1734:040.595   CPU_ReadMem(4 bytes @ 0xE0001028)
T4E38 1734:040.918   Data:  00 00 00 00
T4E38 1734:040.930   Debug reg: DWT_FUNC[0]
T4E38 1734:040.936 - 0.350ms returns 1 (0x1)
T4E38 1734:040.942 JLINK_ReadMemU32(0xE0001038, 0x1 Items)
T4E38 1734:040.950   CPU_ReadMem(4 bytes @ 0xE0001038)
T4E38 1734:041.315   Data:  00 02 00 00
T4E38 1734:041.322   Debug reg: DWT_FUNC[1]
T4E38 1734:041.327 - 0.387ms returns 1 (0x1)
T4E38 1734:041.333 JLINK_ReadMemU32(0xE0001048, 0x1 Items)
T4E38 1734:041.339   CPU_ReadMem(4 bytes @ 0xE0001048)
T4E38 1734:041.668   Data:  00 00 00 00
T4E38 1734:041.675   Debug reg: DWT_FUNC[2]
T4E38 1734:041.681 - 0.349ms returns 1 (0x1)
T4E38 1734:041.686 JLINK_ReadMemU32(0xE0001058, 0x1 Items)
T4E38 1734:041.692   CPU_ReadMem(4 bytes @ 0xE0001058)
T4E38 1734:042.041   Data:  00 00 00 00
T4E38 1734:042.047   Debug reg: DWT_FUNC[3]
T4E38 1734:042.053 - 0.369ms returns 1 (0x1)
T4E38 1734:042.218 JLINK_HasError()
T4E38 1734:042.225 JLINK_ReadReg(R0)
T4E38 1734:042.230 - 0.007ms returns 0x1000433F
T4E38 1734:042.235 JLINK_ReadReg(R1)
T4E38 1734:042.239 - 0.006ms returns 0x2001C8D8
T4E38 1734:042.244 JLINK_ReadReg(R2)
T4E38 1734:042.249 - 0.006ms returns 0x00000000
T4E38 1734:042.254 JLINK_ReadReg(R3)
T4E38 1734:042.258 - 0.006ms returns 0x10010E79
T4E38 1734:042.263 JLINK_ReadReg(R4)
T4E38 1734:042.267 - 0.006ms returns 0x10011EB4
T4E38 1734:042.272 JLINK_ReadReg(R5)
T4E38 1734:042.276 - 0.006ms returns 0x10011EB4
T4E38 1734:042.281 JLINK_ReadReg(R6)
T4E38 1734:042.285 - 0.006ms returns 0x00000000
T4E38 1734:042.290 JLINK_ReadReg(R7)
T4E38 1734:042.294 - 0.006ms returns 0x00000000
T4E38 1734:042.299 JLINK_ReadReg(R8)
T4E38 1734:042.304 - 0.006ms returns 0x00000000
T4E38 1734:042.309 JLINK_ReadReg(R9)
T4E38 1734:042.313 - 0.006ms returns 0x00000000
T4E38 1734:042.318 JLINK_ReadReg(R10)
T4E38 1734:042.322 - 0.006ms returns 0x00000000
T4E38 1734:042.327 JLINK_ReadReg(R11)
T4E38 1734:042.331 - 0.006ms returns 0x00000000
T4E38 1734:042.336 JLINK_ReadReg(R12)
T4E38 1734:042.341 - 0.006ms returns 0x00000000
T4E38 1734:042.345 JLINK_ReadReg(R13 (SP))
T4E38 1734:042.350 - 0.006ms returns 0x20018000
T4E38 1734:042.355 JLINK_ReadReg(R14)
T4E38 1734:042.359 - 0.006ms returns 0x10010DE9
T4E38 1734:042.413 JLINK_ReadReg(R15 (PC))
T4E38 1734:042.420 - 0.009ms returns 0x1000433E
T4E38 1734:042.426 JLINK_ReadReg(XPSR)
T4E38 1734:042.430 - 0.006ms returns 0x61000000
T4E38 1734:042.435 JLINK_ReadReg(MSP)
T4E38 1734:042.439 - 0.006ms returns 0x20018000
T4E38 1734:042.444 JLINK_ReadReg(PSP)
T4E38 1734:042.448 - 0.006ms returns 0x00000000
T4E38 1734:042.453 JLINK_ReadReg(CFBP)
T4E38 1734:042.458 - 0.006ms returns 0x00000000
T4FC0 1734:045.318 JLINK_HasError()
T4FC0 1734:045.335 JLINK_ReadMemU32(0xE0001004, 0x1 Items)
T4FC0 1734:045.345   CPU_ReadMem(4 bytes @ 0xE0001004)
T4FC0 1734:045.700   Data:  00 00 00 00
T4FC0 1734:045.708   Debug reg: DWT_CYCCNT
T4FC0 1734:045.714 - 0.381ms returns 1 (0x1)
T4FC0 1734:047.945 JLINK_ReadMemEx(0x1000433C, 0x3C Bytes, Flags = 0x02000000)
T4FC0 1734:047.963   CPU_ReadMem(128 bytes @ 0x10004300)
T4FC0 1734:049.245    -- Updating DA cache (128 bytes @ 0x10004300)
T4FC0 1734:049.285    -- Read from DA cache (60 bytes @ 0x1000433C)
T4FC0 1734:049.292   Data:  10 BD 4F F4 60 71 4F F4 00 70 FF F7 ED FE 23 20 ...
T4FC0 1734:049.297 - 1.354ms returns 60 (0x3C)
T4FC0 1734:049.303 JLINK_ReadMemEx(0x1000433C, 0x2 Bytes, Flags = 0x02000000)
T4FC0 1734:049.309    -- Read from DA cache (2 bytes @ 0x1000433C)
T4FC0 1734:049.315   Data:  10 BD
T4FC0 1734:049.321 - 0.020ms returns 2 (0x2)
T4FC0 1734:049.327 JLINK_ReadMemEx(0x1000433E, 0x2 Bytes, Flags = 0x02000000)
T4FC0 1734:049.331    -- Read from DA cache (2 bytes @ 0x1000433E)
T4FC0 1734:049.337   Data:  4F F4
T4FC0 1734:049.343 - 0.018ms returns 2 (0x2)
T4FC0 1734:049.358 JLINK_ReadMemEx(0x1000433E, 0x2 Bytes, Flags = 0x02000000)
T4FC0 1734:049.363    -- Read from DA cache (2 bytes @ 0x1000433E)
T4FC0 1734:049.369   Data:  4F F4
T4FC0 1734:049.375 - 0.019ms returns 2 (0x2)
T4FC0 1734:049.380 JLINK_ReadMemEx(0x10004340, 0x3C Bytes, Flags = 0x02000000)
T4FC0 1734:049.384    -- Read from DA cache (60 bytes @ 0x10004340)
T4FC0 1734:049.391   Data:  60 71 4F F4 00 70 FF F7 ED FE 23 20 FD F7 84 FB ...
T4FC0 1734:049.396 - 0.018ms returns 60 (0x3C)
T4FC0 1734:049.401 JLINK_ReadMemEx(0x10004340, 0x2 Bytes, Flags = 0x02000000)
T4FC0 1734:049.406    -- Read from DA cache (2 bytes @ 0x10004340)
T4FC0 1734:049.412   Data:  60 71
T4FC0 1734:049.418 - 0.018ms returns 2 (0x2)
T4FC0 1734:049.425 JLINK_ReadMemEx(0x10004342, 0x2 Bytes, Flags = 0x02000000)
T4FC0 1734:049.430    -- Read from DA cache (2 bytes @ 0x10004342)
T4FC0 1734:049.436   Data:  4F F4
T4FC0 1734:049.442 - 0.018ms returns 2 (0x2)
T4FC0 1734:049.447 JLINK_ReadMemEx(0x10004344, 0x3C Bytes, Flags = 0x02000000)
T4FC0 1734:049.452    -- Read from DA cache (60 bytes @ 0x10004344)
T4FC0 1734:049.458   Data:  00 70 FF F7 ED FE 23 20 FD F7 84 FB FD F7 D8 FC ...
T4FC0 1734:049.464 - 0.018ms returns 60 (0x3C)
T4FC0 1734:049.469 JLINK_ReadMemEx(0x10004344, 0x2 Bytes, Flags = 0x02000000)
T4FC0 1734:049.473    -- Read from DA cache (2 bytes @ 0x10004344)
T4FC0 1734:049.479   Data:  00 70
T4FC0 1734:049.485 - 0.018ms returns 2 (0x2)
T4FC0 1734:049.492 JLINK_ReadMemEx(0x10004346, 0x2 Bytes, Flags = 0x02000000)
T4FC0 1734:049.497    -- Read from DA cache (2 bytes @ 0x10004346)
T4FC0 1734:049.502   Data:  FF F7
T4FC0 1734:049.508 - 0.018ms returns 2 (0x2)
T4FC0 1734:049.513 JLINK_ReadMemEx(0x10004348, 0x3C Bytes, Flags = 0x02000000)
T4FC0 1734:049.519   CPU_ReadMem(64 bytes @ 0x10004380)
T4FC0 1734:050.353    -- Updating DA cache (64 bytes @ 0x10004380)
T4FC0 1734:050.397    -- Read from DA cache (60 bytes @ 0x10004348)
T4FC0 1734:050.404   Data:  ED FE 23 20 FD F7 84 FB FD F7 D8 FC 04 46 21 46 ...
T4FC0 1734:050.409 - 0.898ms returns 60 (0x3C)
T4FC0 1734:050.415 JLINK_ReadMemEx(0x10004348, 0x2 Bytes, Flags = 0x02000000)
T4FC0 1734:050.420    -- Read from DA cache (2 bytes @ 0x10004348)
T4FC0 1734:050.426   Data:  ED FE
T4FC0 1734:050.432 - 0.019ms returns 2 (0x2)
T4E38 1737:259.407 JLINK_ReadMemEx(0x1000433E, 0x2 Bytes, Flags = 0x02000000)
T4E38 1737:259.436    -- Read from DA cache (2 bytes @ 0x1000433E)
T4E38 1737:259.443   Data:  4F F4
T4E38 1737:259.455 - 0.049ms returns 2 (0x2)
T4E38 1737:259.461 JLINK_HasError()
T4E38 1737:259.467 JLINK_SetBPEx(Addr = 0x100043B6, Type = 0xFFFFFFF2)
T4E38 1737:259.474 - 0.008ms returns 0x00000004
T4E38 1737:259.479 JLINK_HasError()
T4E38 1737:259.483 JLINK_HasError()
T4E38 1737:259.489 JLINK_Go()
T4E38 1737:259.914   CPU_WriteMem(4 bytes @ 0xE0002000)
T4E38 1737:260.311   CPU_ReadMem(4 bytes @ 0xE0001000)
T4E38 1737:260.721   CPU_WriteMem(4 bytes @ 0xE0002008)
T4E38 1737:260.733   CPU_WriteMem(4 bytes @ 0xE000200C)
T4E38 1737:261.843 - 2.361ms
T4E38 1737:362.103 JLINK_HasError()
T4E38 1737:362.159 JLINK_IsHalted()
T4E38 1737:365.017 - 2.908ms returns TRUE
T4E38 1737:365.093 JLINK_HasError()
T4E38 1737:365.113 JLINK_Halt()
T4E38 1737:365.128 - 0.022ms returns 0x00
T4E38 1737:365.146 JLINK_IsHalted()
T4E38 1737:365.161 - 0.022ms returns TRUE
T4E38 1737:365.181 JLINK_IsHalted()
T4E38 1737:365.195 - 0.021ms returns TRUE
T4E38 1737:365.211 JLINK_IsHalted()
T4E38 1737:365.225 - 0.021ms returns TRUE
T4E38 1737:365.245 JLINK_HasError()
T4E38 1737:365.265 JLINK_ReadReg(R15 (PC))
T4E38 1737:365.285 - 0.027ms returns 0x100043B6
T4E38 1737:365.305 JLINK_ReadReg(XPSR)
T4E38 1737:365.320 - 0.022ms returns 0x41000000
T4E38 1737:365.346 JLINK_HasError()
T4E38 1737:365.366 JLINK_ClrBPEx(BPHandle = 0x00000004)
T4E38 1737:365.382 - 0.023ms returns 0x00
T4E38 1737:365.401 JLINK_HasError()
T4E38 1737:365.417 JLINK_HasError()
T4E38 1737:365.434 JLINK_ReadMemU32(0xE000ED30, 0x1 Items)
T4E38 1737:365.459   CPU_ReadMem(4 bytes @ 0xE000ED30)
T4E38 1737:366.164   Data:  03 00 00 00
T4E38 1737:366.217 - 0.790ms returns 1 (0x1)
T4E38 1737:366.249 JLINK_ReadMemU32(0xE0001028, 0x1 Items)
T4E38 1737:366.281   CPU_ReadMem(4 bytes @ 0xE0001028)
T4E38 1737:366.947   Data:  00 00 00 00
T4E38 1737:367.000   Debug reg: DWT_FUNC[0]
T4E38 1737:367.020 - 0.778ms returns 1 (0x1)
T4E38 1737:367.053 JLINK_ReadMemU32(0xE0001038, 0x1 Items)
T4E38 1737:367.084   CPU_ReadMem(4 bytes @ 0xE0001038)
T4E38 1737:367.773   Data:  00 02 00 00
T4E38 1737:367.827   Debug reg: DWT_FUNC[1]
T4E38 1737:367.847 - 0.808ms returns 1 (0x1)
T4E38 1737:367.888 JLINK_ReadMemU32(0xE0001048, 0x1 Items)
T4E38 1737:367.920   CPU_ReadMem(4 bytes @ 0xE0001048)
T4E38 1737:368.651   Data:  00 00 00 00
T4E38 1737:368.709   Debug reg: DWT_FUNC[2]
T4E38 1737:368.731 - 0.850ms returns 1 (0x1)
T4E38 1737:368.765 JLINK_ReadMemU32(0xE0001058, 0x1 Items)
T4E38 1737:368.798   CPU_ReadMem(4 bytes @ 0xE0001058)
T4E38 1737:369.372   Data:  00 00 00 00
T4E38 1737:369.423   Debug reg: DWT_FUNC[3]
T4E38 1737:369.445 - 0.687ms returns 1 (0x1)
T4E38 1737:369.928 JLINK_HasError()
T4E38 1737:369.957 JLINK_ReadReg(R0)
T4E38 1737:369.979 - 0.029ms returns 0x00000000
T4E38 1737:369.997 JLINK_ReadReg(R1)
T4E38 1737:370.013 - 0.022ms returns 0x05020700
T4E38 1737:370.030 JLINK_ReadReg(R2)
T4E38 1737:370.044 - 0.021ms returns 0x01060403
T4E38 1737:370.061 JLINK_ReadReg(R3)
T4E38 1737:370.110 - 0.058ms returns 0x0117A120
T4E38 1737:370.131 JLINK_ReadReg(R4)
T4E38 1737:370.146 - 0.022ms returns 0x05B8D800
T4E38 1737:370.164 JLINK_ReadReg(R5)
T4E38 1737:370.178 - 0.021ms returns 0x10011EB4
T4E38 1737:370.195 JLINK_ReadReg(R6)
T4E38 1737:370.210 - 0.020ms returns 0x00000000
T4E38 1737:370.226 JLINK_ReadReg(R7)
T4E38 1737:370.240 - 0.021ms returns 0x00000000
T4E38 1737:370.258 JLINK_ReadReg(R8)
T4E38 1737:370.272 - 0.021ms returns 0x00000000
T4E38 1737:370.289 JLINK_ReadReg(R9)
T4E38 1737:370.303 - 0.021ms returns 0x00000000
T4E38 1737:370.320 JLINK_ReadReg(R10)
T4E38 1737:370.334 - 0.021ms returns 0x00000000
T4E38 1737:370.351 JLINK_ReadReg(R11)
T4E38 1737:370.365 - 0.021ms returns 0x00000000
T4E38 1737:370.382 JLINK_ReadReg(R12)
T4E38 1737:370.397 - 0.022ms returns 0x00000000
T4E38 1737:370.414 JLINK_ReadReg(R13 (SP))
T4E38 1737:370.429 - 0.022ms returns 0x20018000
T4E38 1737:370.446 JLINK_ReadReg(R14)
T4E38 1737:370.460 - 0.021ms returns 0x1000B00F
T4E38 1737:370.477 JLINK_ReadReg(R15 (PC))
T4E38 1737:370.492 - 0.040ms returns 0x100043B6
T4E38 1737:370.539 JLINK_ReadReg(XPSR)
T4E38 1737:370.556 - 0.023ms returns 0x41000000
T4E38 1737:370.572 JLINK_ReadReg(MSP)
T4E38 1737:370.586 - 0.021ms returns 0x20018000
T4E38 1737:370.604 JLINK_ReadReg(PSP)
T4E38 1737:370.618 - 0.021ms returns 0x00000000
T4E38 1737:370.635 JLINK_ReadReg(CFBP)
T4E38 1737:370.649 - 0.021ms returns 0x00000000
T4FC0 1737:372.547 JLINK_HasError()
T4FC0 1737:372.591 JLINK_ReadMemU32(0xE0001004, 0x1 Items)
T4FC0 1737:372.623   CPU_ReadMem(4 bytes @ 0xE0001004)
T4FC0 1737:373.153   Data:  00 00 00 00
T4FC0 1737:373.213   Debug reg: DWT_CYCCNT
T4FC0 1737:373.241 - 0.660ms returns 1 (0x1)
T4FC0 1737:380.721 JLINK_ReadMemEx(0x100043B0, 0x3C Bytes, Flags = 0x02000000)
T4FC0 1737:380.753   CPU_ReadMem(128 bytes @ 0x10004380)
T4FC0 1737:382.070    -- Updating DA cache (128 bytes @ 0x10004380)
T4FC0 1737:382.102    -- Read from DA cache (60 bytes @ 0x100043B0)
T4FC0 1737:382.109   Data:  39 48 06 F0 DD FD 06 F0 01 FA 05 F0 FA F8 00 20 ...
T4FC0 1737:382.114 - 1.395ms returns 60 (0x3C)
T4FC0 1737:382.122 JLINK_ReadMemEx(0x100043B0, 0x2 Bytes, Flags = 0x02000000)
T4FC0 1737:382.128    -- Read from DA cache (2 bytes @ 0x100043B0)
T4FC0 1737:382.134   Data:  39 48
T4FC0 1737:382.140 - 0.020ms returns 2 (0x2)
T4FC0 1737:382.145 JLINK_ReadMemEx(0x100043B2, 0x2 Bytes, Flags = 0x02000000)
T4FC0 1737:382.150    -- Read from DA cache (2 bytes @ 0x100043B2)
T4FC0 1737:382.156   Data:  06 F0
T4FC0 1737:382.162 - 0.018ms returns 2 (0x2)
T4FC0 1737:382.168 JLINK_ReadMemEx(0x100043B2, 0x2 Bytes, Flags = 0x02000000)
T4FC0 1737:382.173    -- Read from DA cache (2 bytes @ 0x100043B2)
T4FC0 1737:382.179   Data:  06 F0
T4FC0 1737:382.185 - 0.018ms returns 2 (0x2)
T4FC0 1737:382.190 JLINK_ReadMemEx(0x100043B4, 0x3C Bytes, Flags = 0x02000000)
T4FC0 1737:382.195    -- Read from DA cache (60 bytes @ 0x100043B4)
T4FC0 1737:382.201   Data:  DD FD 06 F0 01 FA 05 F0 FA F8 00 20 07 F0 65 FA ...
T4FC0 1737:382.207 - 0.019ms returns 60 (0x3C)
T4FC0 1737:382.212 JLINK_ReadMemEx(0x100043B4, 0x2 Bytes, Flags = 0x02000000)
T4FC0 1737:382.216    -- Read from DA cache (2 bytes @ 0x100043B4)
T4FC0 1737:382.222   Data:  DD FD
T4FC0 1737:382.228 - 0.018ms returns 2 (0x2)
T4FC0 1737:382.247 JLINK_ReadMemEx(0x100043B6, 0x2 Bytes, Flags = 0x02000000)
T4FC0 1737:382.252    -- Read from DA cache (2 bytes @ 0x100043B6)
T4FC0 1737:382.258   Data:  06 F0
T4FC0 1737:382.264 - 0.019ms returns 2 (0x2)
T4FC0 1737:382.269 JLINK_ReadMemEx(0x100043B8, 0x3C Bytes, Flags = 0x02000000)
T4FC0 1737:382.274    -- Read from DA cache (60 bytes @ 0x100043B8)
T4FC0 1737:382.281   Data:  01 FA 05 F0 FA F8 00 20 07 F0 65 FA 06 20 00 F0 ...
T4FC0 1737:382.286 - 0.018ms returns 60 (0x3C)
T4FC0 1737:382.291 JLINK_ReadMemEx(0x100043B8, 0x2 Bytes, Flags = 0x02000000)
T4FC0 1737:382.296    -- Read from DA cache (2 bytes @ 0x100043B8)
T4FC0 1737:382.302   Data:  01 FA
T4FC0 1737:382.308 - 0.018ms returns 2 (0x2)
T4E38 1739:124.440 JLINK_ReadMemEx(0x100043B6, 0x2 Bytes, Flags = 0x02000000)
T4E38 1739:124.463    -- Read from DA cache (2 bytes @ 0x100043B6)
T4E38 1739:124.471   Data:  06 F0
T4E38 1739:124.478 - 0.040ms returns 2 (0x2)
T4E38 1739:124.486 JLINK_HasError()
T4E38 1739:124.498 JLINK_Step()
T4E38 1739:124.917    -- Read from DA cache (2 bytes @ 0x100043B6)
T4E38 1739:124.934   CPU_ReadMem(4 bytes @ 0xE000ED18)
T4E38 1739:125.353   CPU_WriteMem(4 bytes @ 0xE000ED18)
T4E38 1739:125.808   CPU_ReadMem(4 bytes @ 0xE000ED18)
T4E38 1739:126.249   CPU_WriteMem(4 bytes @ 0xE000ED18)
T4E38 1739:126.715   -- Not simulated
T4E38 1739:126.737   CPU_WriteMem(4 bytes @ 0xE0002008)
T4E38 1739:130.233 - 5.755ms returns 0
T4E38 1739:130.262 JLINK_HasError()
T4E38 1739:130.268 JLINK_ReadReg(R15 (PC))
T4E38 1739:130.274 - 0.008ms returns 0x1000A7BC
T4E38 1739:130.279 JLINK_ReadReg(XPSR)
T4E38 1739:130.284 - 0.006ms returns 0x41000000
T4E38 1739:130.434 JLINK_HasError()
T4E38 1739:130.440 JLINK_ReadReg(R0)
T4E38 1739:130.444 - 0.006ms returns 0x00000000
T4E38 1739:130.449 JLINK_ReadReg(R1)
T4E38 1739:130.456 - 0.011ms returns 0x05020700
T4E38 1739:130.463 JLINK_ReadReg(R2)
T4E38 1739:130.468 - 0.006ms returns 0x01060403
T4E38 1739:130.472 JLINK_ReadReg(R3)
T4E38 1739:130.476 - 0.006ms returns 0x0117A120
T4E38 1739:130.481 JLINK_ReadReg(R4)
T4E38 1739:130.485 - 0.006ms returns 0x05B8D800
T4E38 1739:130.490 JLINK_ReadReg(R5)
T4E38 1739:130.494 - 0.006ms returns 0x10011EB4
T4E38 1739:130.499 JLINK_ReadReg(R6)
T4E38 1739:130.503 - 0.006ms returns 0x00000000
T4E38 1739:130.508 JLINK_ReadReg(R7)
T4E38 1739:130.512 - 0.006ms returns 0x00000000
T4E38 1739:130.516 JLINK_ReadReg(R8)
T4E38 1739:130.520 - 0.006ms returns 0x00000000
T4E38 1739:130.525 JLINK_ReadReg(R9)
T4E38 1739:130.529 - 0.006ms returns 0x00000000
T4E38 1739:130.534 JLINK_ReadReg(R10)
T4E38 1739:130.538 - 0.006ms returns 0x00000000
T4E38 1739:130.543 JLINK_ReadReg(R11)
T4E38 1739:130.547 - 0.006ms returns 0x00000000
T4E38 1739:130.552 JLINK_ReadReg(R12)
T4E38 1739:130.556 - 0.006ms returns 0x00000000
T4E38 1739:130.561 JLINK_ReadReg(R13 (SP))
T4E38 1739:130.565 - 0.006ms returns 0x20018000
T4E38 1739:130.569 JLINK_ReadReg(R14)
T4E38 1739:130.574 - 0.006ms returns 0x100043BB
T4E38 1739:130.578 JLINK_ReadReg(R15 (PC))
T4E38 1739:130.582 - 0.006ms returns 0x1000A7BC
T4E38 1739:130.587 JLINK_ReadReg(XPSR)
T4E38 1739:130.591 - 0.006ms returns 0x41000000
T4E38 1739:130.596 JLINK_ReadReg(MSP)
T4E38 1739:130.600 - 0.006ms returns 0x20018000
T4E38 1739:130.605 JLINK_ReadReg(PSP)
T4E38 1739:130.609 - 0.006ms returns 0x00000000
T4E38 1739:130.614 JLINK_ReadReg(CFBP)
T4E38 1739:130.618 - 0.006ms returns 0x00000000
T4FC0 1739:135.194 JLINK_HasError()
T4FC0 1739:135.229 JLINK_ReadMemU32(0xE0001004, 0x1 Items)
T4FC0 1739:135.246   CPU_ReadMem(4 bytes @ 0xE0001004)
T4FC0 1739:135.822   Data:  00 00 00 00
T4FC0 1739:135.841   Debug reg: DWT_CYCCNT
T4FC0 1739:135.847 - 0.621ms returns 1 (0x1)
T4FC0 1739:139.045 JLINK_ReadMemEx(0x1000A7BA, 0x2 Bytes, Flags = 0x02000000)
T4FC0 1739:139.075   CPU_ReadMem(64 bytes @ 0x1000A780)
T4FC0 1739:140.000    -- Updating DA cache (64 bytes @ 0x1000A780)
T4FC0 1739:140.011    -- Read from DA cache (2 bytes @ 0x1000A7BA)
T4FC0 1739:140.018   Data:  7C BD
T4FC0 1739:140.024 - 0.980ms returns 2 (0x2)
T4FC0 1739:140.031 JLINK_ReadMemEx(0x1000A7BC, 0x3C Bytes, Flags = 0x02000000)
T4FC0 1739:140.038   CPU_ReadMem(64 bytes @ 0x1000A7C0)
T4FC0 1739:140.931    -- Updating DA cache (64 bytes @ 0x1000A7C0)
T4FC0 1739:140.941    -- Read from DA cache (60 bytes @ 0x1000A7BC)
T4FC0 1739:140.948   Data:  1C B5 30 48 03 21 00 23 80 22 CD E9 00 10 2E A1 ...
T4FC0 1739:140.954 - 0.925ms returns 60 (0x3C)
T4FC0 1739:140.960 JLINK_ReadMemEx(0x1000A7BC, 0x2 Bytes, Flags = 0x02000000)
T4FC0 1739:140.967    -- Read from DA cache (2 bytes @ 0x1000A7BC)
T4FC0 1739:140.973   Data:  1C B5
T4FC0 1739:140.979 - 0.021ms returns 2 (0x2)
T4FC0 1739:140.995 JLINK_ReadMemEx(0x1000A7BC, 0x3C Bytes, Flags = 0x02000000)
T4FC0 1739:141.000    -- Read from DA cache (60 bytes @ 0x1000A7BC)
T4FC0 1739:141.007   Data:  1C B5 30 48 03 21 00 23 80 22 CD E9 00 10 2E A1 ...
T4FC0 1739:141.012 - 0.019ms returns 60 (0x3C)
T4FC0 1739:141.017 JLINK_ReadMemEx(0x1000A7BC, 0x2 Bytes, Flags = 0x02000000)
T4FC0 1739:141.022    -- Read from DA cache (2 bytes @ 0x1000A7BC)
T4FC0 1739:141.028   Data:  1C B5
T4FC0 1739:141.034 - 0.019ms returns 2 (0x2)
T4FC0 1739:141.039 JLINK_ReadMemEx(0x1000A7BE, 0x2 Bytes, Flags = 0x02000000)
T4FC0 1739:141.044    -- Read from DA cache (2 bytes @ 0x1000A7BE)
T4FC0 1739:141.050   Data:  30 48
T4FC0 1739:141.056 - 0.018ms returns 2 (0x2)
T4FC0 1739:141.064 JLINK_ReadMemEx(0x1000A7BE, 0x2 Bytes, Flags = 0x02000000)
T4FC0 1739:141.069    -- Read from DA cache (2 bytes @ 0x1000A7BE)
T4FC0 1739:141.075   Data:  30 48
T4FC0 1739:141.081 - 0.019ms returns 2 (0x2)
T4FC0 1739:141.086 JLINK_ReadMemEx(0x1000A7C0, 0x3C Bytes, Flags = 0x02000000)
T4FC0 1739:141.091    -- Read from DA cache (60 bytes @ 0x1000A7C0)
T4FC0 1739:141.097   Data:  03 21 00 23 80 22 CD E9 00 10 2E A1 31 48 FE F7 ...
T4FC0 1739:141.108 - 0.024ms returns 60 (0x3C)
T4FC0 1739:141.113 JLINK_ReadMemEx(0x1000A7C0, 0x2 Bytes, Flags = 0x02000000)
T4FC0 1739:141.118    -- Read from DA cache (2 bytes @ 0x1000A7C0)
T4FC0 1739:141.124   Data:  03 21
T4FC0 1739:141.130 - 0.019ms returns 2 (0x2)
T4FC0 1739:141.138 JLINK_ReadMemEx(0x1000A7C0, 0x3C Bytes, Flags = 0x02000000)
T4FC0 1739:141.143    -- Read from DA cache (60 bytes @ 0x1000A7C0)
T4FC0 1739:141.150   Data:  03 21 00 23 80 22 CD E9 00 10 2E A1 31 48 FE F7 ...
T4FC0 1739:141.155 - 0.019ms returns 60 (0x3C)
T4FC0 1739:141.160 JLINK_ReadMemEx(0x1000A7C0, 0x2 Bytes, Flags = 0x02000000)
T4FC0 1739:141.165    -- Read from DA cache (2 bytes @ 0x1000A7C0)
T4FC0 1739:141.171   Data:  03 21
T4FC0 1739:141.177 - 0.018ms returns 2 (0x2)
T4FC0 1739:141.182 JLINK_ReadMemEx(0x1000A7C2, 0x2 Bytes, Flags = 0x02000000)
T4FC0 1739:141.187    -- Read from DA cache (2 bytes @ 0x1000A7C2)
T4FC0 1739:141.194   Data:  00 23
T4FC0 1739:141.200 - 0.019ms returns 2 (0x2)
T4E38 1740:622.884 JLINK_ReadMemEx(0x1000A7BC, 0x2 Bytes, Flags = 0x02000000)
T4E38 1740:622.921    -- Read from DA cache (2 bytes @ 0x1000A7BC)
T4E38 1740:622.928   Data:  1C B5
T4E38 1740:622.935 - 0.053ms returns 2 (0x2)
T4E38 1740:622.941 JLINK_HasError()
T4E38 1740:622.948 JLINK_Step()
T4E38 1740:623.286    -- Read from DA cache (2 bytes @ 0x1000A7BC)
T4E38 1740:623.304   -- Not simulated
T4E38 1740:625.981 - 3.046ms returns 0
T4E38 1740:626.001 JLINK_HasError()
T4E38 1740:626.008 JLINK_ReadReg(R15 (PC))
T4E38 1740:626.015 - 0.008ms returns 0x1000A7BE
T4E38 1740:626.020 JLINK_ReadReg(XPSR)
T4E38 1740:626.024 - 0.006ms returns 0x41000000
T4E38 1740:626.140 JLINK_HasError()
T4E38 1740:626.146 JLINK_ReadReg(R0)
T4E38 1740:626.150 - 0.006ms returns 0x00000000
T4E38 1740:626.155 JLINK_ReadReg(R1)
